
**** 03/14/11 21:42:55 ******* PSpice 16.3.0 (June 2009) ****** ID# 0 ********

 ** Profile: "SCHEMATIC1-bpf"  [ C:\Users\nathan.west\Documents\school\tekScope\filter_design\bpf-pspicefiles\schematic1\bpf.sim ] 


 ****     CIRCUIT DESCRIPTION


******************************************************************************




** Creating circuit file "bpf.cir" 
** WARNING: THIS AUTOMATICALLY GENERATED FILE MAY BE OVERWRITTEN BY SUBSEQUENT SIMULATIONS

*Libraries: 
* Profile Libraries :
* Local Libraries :
* From [PSPICE NETLIST] section of C:\Cadence\SPB_16.3\tools\PSpice\PSpice.ini file:
.lib "nom.lib" 

*Analysis directives: 
.AC LIN 1000 1 20000
.PROBE V(alias(*)) I(alias(*)) W(alias(*)) D(alias(*)) NOISE(alias(*)) 
.INC "..\SCHEMATIC1.net" 



**** INCLUDING SCHEMATIC1.net ****
* source BPF
X_U1A         N00235 N00277 N00586 N00620 N00259 LM358
R_R_1         N00802 N00222  150 TC=0,0 
R_R_f         N00222 N00259  3000 TC=0,0 
R_R_b         N00277 N00259  20000 TC=0,0 
R_R_a         0 N00277  15000 TC=0,0 
R_R_2         0 N00235  300 TC=0,0 
C_C_2         N00222 N00235  4.7u  TC=0,0 
C_C_1         0 N00222  4.7u  TC=0,0 
V_V2         N00620 0 -10Vdc
V_V3         N00586 0 10Vdc
V_V4         N00802 0 DC 0Vdc AC 2Vac 
V_V6         N02436 0 10Vdc
R_R_b1         N02318 N02300  20000 TC=0,0 
R_R_a1         0 N02318  15000 TC=0,0 
R_R_3         N00259 N02258  150 TC=0,0 
R_R_4         0 N02278  300 TC=0,0 
C_C_3         N02258 N02278  4.7u  TC=0,0 
R_R_f1         N02258 N02300  3000 TC=0,0 
V_V5         N02452 0 -10Vdc
X_U1B         N02278 N02318 N02436 N02452 N02300 LM358
C_C_4         0 N02258  4.7u  TC=0,0 

**** RESUMING bpf.cir ****
.END

**** 03/14/11 21:42:55 ******* PSpice 16.3.0 (June 2009) ****** ID# 0 ********

 ** Profile: "SCHEMATIC1-bpf"  [ C:\Users\nathan.west\Documents\school\tekScope\filter_design\bpf-pspicefiles\schematic1\bpf.sim ] 


 ****     Diode MODEL PARAMETERS


******************************************************************************




               X_U1A.x_lm358.dx 
          IS  800.000000E-18 
          RS    1            


               X_U1A.x_lm358.dy 
          IS  800.000000E-18 
          RS    1.000000E-03 
         CJO   10.000000E-12 


               X_U1B.x_lm358.dx 
          IS  800.000000E-18 
          RS    1            


               X_U1B.x_lm358.dy 
          IS  800.000000E-18 
          RS    1.000000E-03 
         CJO   10.000000E-12 


**** 03/14/11 21:42:55 ******* PSpice 16.3.0 (June 2009) ****** ID# 0 ********

 ** Profile: "SCHEMATIC1-bpf"  [ C:\Users\nathan.west\Documents\school\tekScope\filter_design\bpf-pspicefiles\schematic1\bpf.sim ] 


 ****     BJT MODEL PARAMETERS


******************************************************************************




               X_U1A.x_lm358.qx 
               PNP             
       LEVEL    1            
          IS  800.000000E-18 
          BF  166.7          
          NF    1            
          BR    1            
          NR    1            
         ISS    0            
          RE    0            
          RC    0            
         CJE    0            
         VJE     .75         
         CJC    0            
         VJC     .75         
         MJC     .33         
        XCJC    1            
         CJS    0            
         VJS     .75         
          KF    0            
          AF    1            
          CN    2.2          
           D     .52         


               X_U1B.x_lm358.qx 
               PNP             
       LEVEL    1            
          IS  800.000000E-18 
          BF  166.7          
          NF    1            
          BR    1            
          NR    1            
         ISS    0            
          RE    0            
          RC    0            
         CJE    0            
         VJE     .75         
         CJC    0            
         VJC     .75         
         MJC     .33         
        XCJC    1            
         CJS    0            
         VJS     .75         
          KF    0            
          AF    1            
          CN    2.2          
           D     .52         


**** 03/14/11 21:42:55 ******* PSpice 16.3.0 (June 2009) ****** ID# 0 ********

 ** Profile: "SCHEMATIC1-bpf"  [ C:\Users\nathan.west\Documents\school\tekScope\filter_design\bpf-pspicefiles\schematic1\bpf.sim ] 


 ****     Current Controlled Switch MODEL PARAMETERS


******************************************************************************




               X_U1A.x_lm358.sw2 
         RON    1            
        ROFF   10.000000E+06 
         ION    0            
        IOFF   -1.000000E-06 


               X_U1A.x_lm358.sw1 
         RON    1            
        ROFF   10.000000E+06 
         ION   -1.000000E-06 
        IOFF    0            


               X_U1A.x_lm358.sw3 
         RON    1            
        ROFF   10.000000E+06 
         ION   -1.000000E-06 
        IOFF    0            


               X_U1A.x_lm358.sw4 
         RON    1            
        ROFF   10.000000E+06 
         ION    0            
        IOFF   -1.000000E-06 


               X_U1B.x_lm358.sw2 
         RON    1            
        ROFF   10.000000E+06 
         ION    0            
        IOFF   -1.000000E-06 


               X_U1B.x_lm358.sw1 
         RON    1            
        ROFF   10.000000E+06 
         ION   -1.000000E-06 
        IOFF    0            


               X_U1B.x_lm358.sw3 
         RON    1            
        ROFF   10.000000E+06 
         ION   -1.000000E-06 
        IOFF    0            


               X_U1B.x_lm358.sw4 
         RON    1            
        ROFF   10.000000E+06 
         ION    0            
        IOFF   -1.000000E-06 


**** 03/14/11 21:42:55 ******* PSpice 16.3.0 (June 2009) ****** ID# 0 ********

 ** Profile: "SCHEMATIC1-bpf"  [ C:\Users\nathan.west\Documents\school\tekScope\filter_design\bpf-pspicefiles\schematic1\bpf.sim ] 


 ****     SMALL SIGNAL BIAS SOLUTION       TEMPERATURE =   27.000 DEG C


******************************************************************************



 NODE   VOLTAGE     NODE   VOLTAGE     NODE   VOLTAGE     NODE   VOLTAGE


(N00222)-62.71E-06 (N00235) 13.42E-06 (N00259)    -.0013 (N00277)-179.1E-06     

(N00586)   10.0000 (N00620)  -10.0000 (N00802)    0.0000 (N02258)    -.0013     

(N02278) 13.42E-06 (N02300)    -.0013 (N02318)-179.1E-06 (N02436)   10.0000     

(N02452)  -10.0000 (X_U1A.x_lm358.6) 254.8E-09                                  

(X_U1A.x_lm358.7)    -.0013           (X_U1A.x_lm358.8)    -.0013               

(X_U1A.x_lm358.9)    0.0000           (X_U1A.x_lm358.a)    7.7038               

(X_U1A.x_lm358.b)   -2.2962           (X_U1B.x_lm358.6) 248.8E-09               

(X_U1B.x_lm358.7)    -.0013           (X_U1B.x_lm358.8)    -.0013               

(X_U1B.x_lm358.9)    0.0000           (X_U1B.x_lm358.a)   10.0000               

(X_U1B.x_lm358.b)-1.285E-06           (X_U1A.x_lm358.10)     .6076              

(X_U1A.x_lm358.11)   -9.9602          (X_U1A.x_lm358.12)   -9.9604              

(X_U1A.x_lm358.13)     .5937          (X_U1A.x_lm358.14)     .5937              

(X_U1A.x_lm358.53)    8.5000          (X_U1A.x_lm358.54)   -9.1780              

(X_U1A.x_lm358.90)-475.0E-06          (X_U1A.x_lm358.91)   40.0000              

(X_U1A.x_lm358.92)  -40.0000          (X_U1A.x_lm358.99)    0.0000              

(X_U1B.x_lm358.10)     .6076          (X_U1B.x_lm358.11)   -9.9602              

(X_U1B.x_lm358.12)   -9.9604          (X_U1B.x_lm358.13)     .5937              

(X_U1B.x_lm358.14)     .5937          (X_U1B.x_lm358.53)    8.5000              

(X_U1B.x_lm358.54)   -9.1780          (X_U1B.x_lm358.90)-56.89E-06              

(X_U1B.x_lm358.91)   40.0000          (X_U1B.x_lm358.92)  -40.0000              

(X_U1B.x_lm358.99)    0.0000          




    VOLTAGE SOURCE CURRENTS
    NAME         CURRENT

    V_V2         3.547E-03
    V_V3        -3.547E-03
    V_V4        -4.181E-07
    V_V6        -2.218E-03
    V_V5         2.218E-03
    X_U1A.x_lm358.vb   2.548E-12
    X_U1A.x_lm358.vc   8.502E-12
    X_U1A.x_lm358.ve   9.094E-12
    X_U1A.x_lm358.vlim  -4.750E-07
    X_U1A.x_lm358.vlp  -4.000E-11
    X_U1A.x_lm358.vln  -4.000E-11
    X_U1B.x_lm358.vb   2.488E-12
    X_U1B.x_lm358.vc   8.502E-12
    X_U1B.x_lm358.ve   9.094E-12
    X_U1B.x_lm358.vlim  -5.689E-08
    X_U1B.x_lm358.vlp  -4.000E-11
    X_U1B.x_lm358.vln  -4.000E-11

    TOTAL POWER DISSIPATION   1.15E-01  WATTS



          JOB CONCLUDED

**** 03/14/11 21:42:55 ******* PSpice 16.3.0 (June 2009) ****** ID# 0 ********

 ** Profile: "SCHEMATIC1-bpf"  [ C:\Users\nathan.west\Documents\school\tekScope\filter_design\bpf-pspicefiles\schematic1\bpf.sim ] 


 ****     JOB STATISTICS SUMMARY


******************************************************************************



  Total job time (using Solver 1)   =         .19
